1



                                 *********************************************

                                    NUMERICAL ELECTROMAGNETICS CODE (NEC-2D)

                                 *********************************************




                                     - - - - COMMENTS - - - -


                          Wire Antenna Fast Ground                                                   
                                                                                                     




                                 - - - STRUCTURE SPECIFICATION - - -

                                     COORDINATES MUST BE INPUT IN
                                     METERS OR BE SCALED TO METERS
                                     BEFORE STRUCTURE INPUT IS ENDED


  WIRE                                                                               NO. OF    FIRST  LAST     TAG
  NO.        X1         Y1         Z1          X2         Y2         Z2      RADIUS   SEG.     SEG.   SEG.     NO.
     1    0.00000    0.00000   25.00000   500.00000    0.00000   25.00000    0.02000    100        1   100       1
     2    0.00000    0.00000    0.00000     0.00000    0.00000   25.00000    0.02000      3      101   103       2
     3  500.00000    0.00000   25.00000   500.00000    0.00000    0.00000    0.02000      3      104   106       3

   TOTAL SEGMENTS USED=  106     NO. SEG. IN A SYMMETRIC CELL=  106     SYMMETRY FLAG=  0


         - MULTIPLE WIRE JUNCTIONS -
 JUNCTION    SEGMENTS  (- FOR END 1, + FOR END 2)
  NONE




                                 - - - - SEGMENTATION DATA - - - -

                                        COORDINATES IN METERS

                         I+ AND I- INDICATE THE SEGMENTS BEFORE AND AFTER I


  SEG.   COORDINATES OF SEG. CENTER     SEG.     ORIENTATION ANGLES    WIRE    CONNECTION DATA   TAG
  NO.       X         Y         Z       LENGTH     ALPHA     BETA      RADIUS    I-   I    I+    NO.
     1   2.50000   0.00000  25.00000   5.00000    0.00000   0.00000   0.02000   103    1    2      1
     2   7.50000   0.00000  25.00000   5.00000    0.00000   0.00000   0.02000     1    2    3      1
     3  12.50000   0.00000  25.00000   5.00000    0.00000   0.00000   0.02000     2    3    4      1
     4  17.50000   0.00000  25.00000   5.00000    0.00000   0.00000   0.02000     3    4    5      1
     5  22.50000   0.00000  25.00000   5.00000    0.00000   0.00000   0.02000     4    5    6      1
     6  27.50000   0.00000  25.00000   5.00000    0.00000   0.00000   0.02000     5    6    7      1
     7  32.50000   0.00000  25.00000   5.00000    0.00000   0.00000   0.02000     6    7    8      1
     8  37.50000   0.00000  25.00000   5.00000    0.00000   0.00000   0.02000     7    8    9      1
     9  42.50000   0.00000  25.00000   5.00000    0.00000   0.00000   0.02000     8    9   10      1
    10  47.50000   0.00000  25.00000   5.00000    0.00000   0.00000   0.02000     9   10   11      1
    11  52.50000   0.00000  25.00000   5.00000    0.00000   0.00000   0.02000    10   11   12      1
    12  57.50000   0.00000  25.00000   5.00000    0.00000   0.00000   0.02000    11   12   13      1
    13  62.50000   0.00000  25.00000   5.00000    0.00000   0.00000   0.02000    12   13   14      1
    14  67.50000   0.00000  25.00000   5.00000    0.00000   0.00000   0.02000    13   14   15      1
    15  72.50000   0.00000  25.00000   5.00000    0.00000   0.00000   0.02000    14   15   16      1
    16  77.50000   0.00000  25.00000   5.00000    0.00000   0.00000   0.02000    15   16   17      1
    17  82.50000   0.00000  25.00000   5.00000    0.00000   0.00000   0.02000    16   17   18      1
    18  87.50000   0.00000  25.00000   5.00000    0.00000   0.00000   0.02000    17   18   19      1
    19  92.50000   0.00000  25.00000   5.00000    0.00000   0.00000   0.02000    18   19   20      1
    20  97.50000   0.00000  25.00000   5.00000    0.00000   0.00000   0.02000    19   20   21      1
    21 102.50000   0.00000  25.00000   5.00000    0.00000   0.00000   0.02000    20   21   22      1
    22 107.50000   0.00000  25.00000   5.00000    0.00000   0.00000   0.02000    21   22   23      1
    23 112.50000   0.00000  25.00000   5.00000    0.00000   0.00000   0.02000    22   23   24      1
    24 117.50000   0.00000  25.00000   5.00000    0.00000   0.00000   0.02000    23   24   25      1
    25 122.50000   0.00000  25.00000   5.00000    0.00000   0.00000   0.02000    24   25   26      1
    26 127.50000   0.00000  25.00000   5.00000    0.00000   0.00000   0.02000    25   26   27      1
    27 132.50000   0.00000  25.00000   5.00000    0.00000   0.00000   0.02000    26   27   28      1
    28 137.50000   0.00000  25.00000   5.00000    0.00000   0.00000   0.02000    27   28   29      1
    29 142.50000   0.00000  25.00000   5.00000    0.00000   0.00000   0.02000    28   29   30      1
    30 147.50000   0.00000  25.00000   5.00000    0.00000   0.00000   0.02000    29   30   31      1
    31 152.50000   0.00000  25.00000   5.00000    0.00000   0.00000   0.02000    30   31   32      1
    32 157.50000   0.00000  25.00000   5.00000    0.00000   0.00000   0.02000    31   32   33      1
    33 162.50000   0.00000  25.00000   5.00000    0.00000   0.00000   0.02000    32   33   34      1
    34 167.50000   0.00000  25.00000   5.00000    0.00000   0.00000   0.02000    33   34   35      1
    35 172.50000   0.00000  25.00000   5.00000    0.00000   0.00000   0.02000    34   35   36      1
    36 177.50000   0.00000  25.00000   5.00000    0.00000   0.00000   0.02000    35   36   37      1
    37 182.50000   0.00000  25.00000   5.00000    0.00000   0.00000   0.02000    36   37   38      1
    38 187.50000   0.00000  25.00000   5.00000    0.00000   0.00000   0.02000    37   38   39      1
    39 192.50000   0.00000  25.00000   5.00000    0.00000   0.00000   0.02000    38   39   40      1
    40 197.50000   0.00000  25.00000   5.00000    0.00000   0.00000   0.02000    39   40   41      1
    41 202.50000   0.00000  25.00000   5.00000    0.00000   0.00000   0.02000    40   41   42      1
    42 207.50000   0.00000  25.00000   5.00000    0.00000   0.00000   0.02000    41   42   43      1
    43 212.50000   0.00000  25.00000   5.00000    0.00000   0.00000   0.02000    42   43   44      1
    44 217.50000   0.00000  25.00000   5.00000    0.00000   0.00000   0.02000    43   44   45      1
    45 222.50000   0.00000  25.00000   5.00000    0.00000   0.00000   0.02000    44   45   46      1
    46 227.50000   0.00000  25.00000   5.00000    0.00000   0.00000   0.02000    45   46   47      1
    47 232.50000   0.00000  25.00000   5.00000    0.00000   0.00000   0.02000    46   47   48      1
    48 237.50000   0.00000  25.00000   5.00000    0.00000   0.00000   0.02000    47   48   49      1
    49 242.50000   0.00000  25.00000   5.00000    0.00000   0.00000   0.02000    48   49   50      1
    50 247.50000   0.00000  25.00000   5.00000    0.00000   0.00000   0.02000    49   50   51      1
    51 252.50000   0.00000  25.00000   5.00000    0.00000   0.00000   0.02000    50   51   52      1
    52 257.50000   0.00000  25.00000   5.00000    0.00000   0.00000   0.02000    51   52   53      1
    53 262.50000   0.00000  25.00000   5.00000    0.00000   0.00000   0.02000    52   53   54      1
    54 267.50000   0.00000  25.00000   5.00000    0.00000   0.00000   0.02000    53   54   55      1
    55 272.50000   0.00000  25.00000   5.00000    0.00000   0.00000   0.02000    54   55   56      1
    56 277.50000   0.00000  25.00000   5.00000    0.00000   0.00000   0.02000    55   56   57      1
    57 282.50000   0.00000  25.00000   5.00000    0.00000   0.00000   0.02000    56   57   58      1
    58 287.50000   0.00000  25.00000   5.00000    0.00000   0.00000   0.02000    57   58   59      1
    59 292.50000   0.00000  25.00000   5.00000    0.00000   0.00000   0.02000    58   59   60      1
    60 297.50000   0.00000  25.00000   5.00000    0.00000   0.00000   0.02000    59   60   61      1
    61 302.50000   0.00000  25.00000   5.00000    0.00000   0.00000   0.02000    60   61   62      1
    62 307.50000   0.00000  25.00000   5.00000    0.00000   0.00000   0.02000    61   62   63      1
    63 312.50000   0.00000  25.00000   5.00000    0.00000   0.00000   0.02000    62   63   64      1
    64 317.50000   0.00000  25.00000   5.00000    0.00000   0.00000   0.02000    63   64   65      1
    65 322.50000   0.00000  25.00000   5.00000    0.00000   0.00000   0.02000    64   65   66      1
    66 327.50000   0.00000  25.00000   5.00000    0.00000   0.00000   0.02000    65   66   67      1
    67 332.50000   0.00000  25.00000   5.00000    0.00000   0.00000   0.02000    66   67   68      1
    68 337.50000   0.00000  25.00000   5.00000    0.00000   0.00000   0.02000    67   68   69      1
    69 342.50000   0.00000  25.00000   5.00000    0.00000   0.00000   0.02000    68   69   70      1
    70 347.50000   0.00000  25.00000   5.00000    0.00000   0.00000   0.02000    69   70   71      1
    71 352.50000   0.00000  25.00000   5.00000    0.00000   0.00000   0.02000    70   71   72      1
    72 357.50000   0.00000  25.00000   5.00000    0.00000   0.00000   0.02000    71   72   73      1
    73 362.50000   0.00000  25.00000   5.00000    0.00000   0.00000   0.02000    72   73   74      1
    74 367.50000   0.00000  25.00000   5.00000    0.00000   0.00000   0.02000    73   74   75      1
    75 372.50000   0.00000  25.00000   5.00000    0.00000   0.00000   0.02000    74   75   76      1
    76 377.50000   0.00000  25.00000   5.00000    0.00000   0.00000   0.02000    75   76   77      1
    77 382.50000   0.00000  25.00000   5.00000    0.00000   0.00000   0.02000    76   77   78      1
    78 387.50000   0.00000  25.00000   5.00000    0.00000   0.00000   0.02000    77   78   79      1
    79 392.50000   0.00000  25.00000   5.00000    0.00000   0.00000   0.02000    78   79   80      1
    80 397.50000   0.00000  25.00000   5.00000    0.00000   0.00000   0.02000    79   80   81      1
    81 402.50000   0.00000  25.00000   5.00000    0.00000   0.00000   0.02000    80   81   82      1
    82 407.50000   0.00000  25.00000   5.00000    0.00000   0.00000   0.02000    81   82   83      1
    83 412.50000   0.00000  25.00000   5.00000    0.00000   0.00000   0.02000    82   83   84      1
    84 417.50000   0.00000  25.00000   5.00000    0.00000   0.00000   0.02000    83   84   85      1
    85 422.50000   0.00000  25.00000   5.00000    0.00000   0.00000   0.02000    84   85   86      1
    86 427.50000   0.00000  25.00000   5.00000    0.00000   0.00000   0.02000    85   86   87      1
    87 432.50000   0.00000  25.00000   5.00000    0.00000   0.00000   0.02000    86   87   88      1
    88 437.50000   0.00000  25.00000   5.00000    0.00000   0.00000   0.02000    87   88   89      1
    89 442.50000   0.00000  25.00000   5.00000    0.00000   0.00000   0.02000    88   89   90      1
    90 447.50000   0.00000  25.00000   5.00000    0.00000   0.00000   0.02000    89   90   91      1
    91 452.50000   0.00000  25.00000   5.00000    0.00000   0.00000   0.02000    90   91   92      1
    92 457.50000   0.00000  25.00000   5.00000    0.00000   0.00000   0.02000    91   92   93      1
    93 462.50000   0.00000  25.00000   5.00000    0.00000   0.00000   0.02000    92   93   94      1
    94 467.50000   0.00000  25.00000   5.00000    0.00000   0.00000   0.02000    93   94   95      1
    95 472.50000   0.00000  25.00000   5.00000    0.00000   0.00000   0.02000    94   95   96      1
    96 477.50000   0.00000  25.00000   5.00000    0.00000   0.00000   0.02000    95   96   97      1
    97 482.50000   0.00000  25.00000   5.00000    0.00000   0.00000   0.02000    96   97   98      1
    98 487.50000   0.00000  25.00000   5.00000    0.00000   0.00000   0.02000    97   98   99      1
    99 492.50000   0.00000  25.00000   5.00000    0.00000   0.00000   0.02000    98   99  100      1
   100 497.50000   0.00000  25.00000   5.00000    0.00000   0.00000   0.02000    99  100  104      1
   101   0.00000   0.00000   4.16667   8.33333   90.00000   0.00000   0.02000     0  101  102      2
   102   0.00000   0.00000  12.50000   8.33333   90.00000   0.00000   0.02000   101  102  103      2
   103   0.00000   0.00000  20.83333   8.33333   90.00000   0.00000   0.02000   102  103    1      2
   104 500.00000   0.00000  20.83333   8.33333  -90.00000   0.00000   0.02000   100  104  105      3
   105 500.00000   0.00000  12.50000   8.33333  -90.00000   0.00000   0.02000   104  105  106      3
   106 500.00000   0.00000   4.16667   8.33333  -90.00000   0.00000   0.02000   105  106    0      3






 ***** DATA CARD NO.  1   LD   0     3     1     3  5.10460E+02  0.00000E+00  0.00000E+00  0.00000E+00  0.00000E+00  0.00000E+00
 ***** DATA CARD NO.  2   GN   0     0     0     0  1.30000E+01  5.00000E-03  0.00000E+00  0.00000E+00  0.00000E+00  0.00000E+00
 ***** DATA CARD NO.  3   EK   0     0     0     0  0.00000E+00  0.00000E+00  0.00000E+00  0.00000E+00  0.00000E+00  0.00000E+00
 ***** DATA CARD NO.  4   EX   0     1     1     0  1.00000E+00  0.00000E+00  0.00000E+00  0.00000E+00  0.00000E+00  0.00000E+00
 ***** DATA CARD NO.  5   FR   0     0     0     0  3.00000E+00  0.00000E+00  0.00000E+00  0.00000E+00  0.00000E+00  0.00000E+00
 ***** DATA CARD NO.  6   RP   0    91   361  1003 -9.00000E+01  0.00000E+00  1.00000E+00  1.00000E+00  0.00000E+00  0.00000E+00




                                 - - - - - - FREQUENCY - - - - - -

                                    FREQUENCY= 3.0000E+00 MHZ
                                    WAVELENGTH= 9.9933E+01 METERS




                    APPROXIMATE INTEGRATION EMPLOYED FOR SEGMENTS MORE THAN   1.000 WAVELENGTHS APART

                    THE EXTENDED THIN WIRE KERNEL WILL BE USED



                               - - - STRUCTURE IMPEDANCE LOADING - - -


       LOCATION          RESISTANCE   INDUCTANCE  CAPACITANCE       IMPEDANCE (OHMS)     CONDUCTIVITY    TYPE
    ITAG FROM THRU          OHMS        HENRYS       FARADS        REAL      IMAGINARY    MHOS/METER

       3    1    3      5.1046E+02                                                                     SERIES 



                                  - - - ANTENNA ENVIRONMENT - - -

                                        FINITE GROUND.  REFLECTION COEFFICIENT APPROXIMATION
                                        RELATIVE DIELECTRIC CONST.= 13.000
                                        CONDUCTIVITY= 5.000E-03 MHOS/METER
                                        COMPLEX DIELECTRIC CONSTANT= 1.30000E+01-2.99600E+01



                                - - - MATRIX TIMING - - -

                        FILL=    0.031 SEC.,  FACTOR=    0.000 SEC.



                                          - - - ANTENNA INPUT PARAMETERS - - -

   TAG   SEG.    VOLTAGE (VOLTS)         CURRENT (AMPS)         IMPEDANCE (OHMS)        ADMITTANCE (MHOS)      POWER
   NO.   NO.    REAL        IMAG.       REAL        IMAG.       REAL        IMAG.       REAL        IMAG.     (WATTS)
     1     1 1.00000E+00 0.00000E+00 1.77990E-03 7.61179E-04 4.74964E+02-2.03120E+02 1.77990E-03 7.61179E-04 8.89951E-04



                             - - - CURRENTS AND LOCATION - - -

                                 DISTANCES IN WAVELENGTHS


  SEG.  TAG    COORD. OF SEG. CENTER     SEG.            - - - CURRENT (AMPS) - - -
  NO.   NO.     X        Y        Z      LENGTH     REAL        IMAG.       MAG.        PHASE
     1    1   0.0250   0.0000   0.2502  0.05003   1.7799E-03  7.6118E-04  1.9358E-03   23.154
     2    1   0.0751   0.0000   0.2502  0.05003   1.5945E-03  2.2208E-05  1.5946E-03    0.798
     3    1   0.1251   0.0000   0.2502  0.05003   1.2786E-03 -7.6285E-04  1.4889E-03  -30.822
     4    1   0.1751   0.0000   0.2502  0.05003   8.5993E-04 -1.4340E-03  1.6721E-03  -59.050
     5    1   0.2252   0.0000   0.2502  0.05003   3.7687E-04 -1.9457E-03  1.9818E-03  -79.038
     6    1   0.2752   0.0000   0.2502  0.05003  -1.2579E-04 -2.2563E-03  2.2598E-03  -93.191
     7    1   0.3252   0.0000   0.2502  0.05003  -6.0126E-04 -2.3406E-03  2.4166E-03 -104.407
     8    1   0.3753   0.0000   0.2502  0.05003  -1.0053E-03 -2.1942E-03  2.4135E-03 -114.617
     9    1   0.4253   0.0000   0.2502  0.05003  -1.3009E-03 -1.8339E-03  2.2485E-03 -125.349
    10    1   0.4753   0.0000   0.2502  0.05003  -1.4611E-03 -1.2971E-03  1.9538E-03 -138.404
    11    1   0.5254   0.0000   0.2502  0.05003  -1.4727E-03 -6.3742E-04  1.6048E-03 -156.596
    12    1   0.5754   0.0000   0.2502  0.05003  -1.3366E-03  7.9613E-05  1.3389E-03  176.591
    13    1   0.6254   0.0000   0.2502  0.05003  -1.0678E-03  7.8349E-04  1.3244E-03  143.732
    14    1   0.6755   0.0000   0.2502  0.05003  -6.9447E-04  1.4053E-03  1.5676E-03  116.297
    15    1   0.7255   0.0000   0.2502  0.05003  -2.5434E-04  1.8847E-03  1.9017E-03   97.686
    16    1   0.7755   0.0000   0.2502  0.05003   2.0845E-04  2.1751E-03  2.1851E-03   84.526
    17    1   0.8256   0.0000   0.2502  0.05003   6.4795E-04  2.2492E-03  2.3407E-03   73.929
    18    1   0.8756   0.0000   0.2502  0.05003   1.0208E-03  2.1005E-03  2.3354E-03   64.082
    19    1   0.9256   0.0000   0.2502  0.05003   1.2904E-03  1.7447E-03  2.1700E-03   53.514
    20    1   0.9757   0.0000   0.2502  0.05003   1.4306E-03  1.2177E-03  1.8786E-03   40.404
    21    1   1.0257   0.0000   0.2502  0.05003   1.4281E-03  5.7192E-04  1.5384E-03   21.825
    22    1   1.0757   0.0000   0.2502  0.05003   1.2838E-03 -1.2844E-04  1.2902E-03   -5.713
    23    1   1.1258   0.0000   0.2502  0.05003   1.0125E-03 -8.1417E-04  1.2992E-03  -38.803
    24    1   1.1758   0.0000   0.2502  0.05003   6.4149E-04 -1.4176E-03  1.5560E-03  -65.653
    25    1   1.2258   0.0000   0.2502  0.05003   2.0782E-04 -1.8795E-03  1.8910E-03  -83.690
    26    1   1.2759   0.0000   0.2502  0.05003  -2.4543E-04 -2.1546E-03  2.1685E-03  -96.499
    27    1   1.3259   0.0000   0.2502  0.05003  -6.7334E-04 -2.2160E-03  2.3161E-03 -106.901
    28    1   1.3759   0.0000   0.2502  0.05003  -1.0336E-03 -2.0583E-03  2.3033E-03 -116.665
    29    1   1.4260   0.0000   0.2502  0.05003  -1.2909E-03 -1.6973E-03  2.1324E-03 -127.254
    30    1   1.4760   0.0000   0.2502  0.05003  -1.4197E-03 -1.1691E-03  1.8392E-03 -140.529
    31    1   1.5260   0.0000   0.2502  0.05003  -1.4078E-03 -5.2617E-04  1.5029E-03 -159.507
    32    1   1.5761   0.0000   0.2502  0.05003  -1.2565E-03  1.6792E-04  1.2676E-03  172.388
    33    1   1.6261   0.0000   0.2502  0.05003  -9.8090E-04  8.4449E-04  1.2944E-03  139.274
    34    1   1.6761   0.0000   0.2502  0.05003  -6.0858E-04  1.4368E-03  1.5603E-03  112.956
    35    1   1.7262   0.0000   0.2502  0.05003  -1.7642E-04  1.8863E-03  1.8945E-03   95.343
    36    1   1.7762   0.0000   0.2502  0.05003   2.7277E-04  2.1489E-03  2.1661E-03   82.766
    37    1   1.8262   0.0000   0.2502  0.05003   6.9456E-04  2.1987E-03  2.3058E-03   72.469
    38    1   1.8763   0.0000   0.2502  0.05003   1.0473E-03  2.0312E-03  2.2853E-03   62.724
    39    1   1.9263   0.0000   0.2502  0.05003   1.2961E-03  1.6629E-03  2.1084E-03   52.065
    40    1   1.9763   0.0000   0.2502  0.05003   1.4166E-03  1.1304E-03  1.8124E-03   38.589
    41    1   2.0264   0.0000   0.2502  0.05003   1.3969E-03  4.8654E-04  1.4792E-03   19.203
    42    1   2.0764   0.0000   0.2502  0.05003   1.2390E-03 -2.0510E-04  1.2559E-03   -9.399
    43    1   2.1264   0.0000   0.2502  0.05003   9.5865E-04 -8.7612E-04  1.2987E-03  -42.424
    44    1   2.1765   0.0000   0.2502  0.05003   5.8361E-04 -1.4602E-03  1.5725E-03  -68.215
    45    1   2.2265   0.0000   0.2502  0.05003   1.5096E-04 -1.8997E-03  1.9057E-03  -85.456
    46    1   2.2765   0.0000   0.2502  0.05003  -2.9650E-04 -2.1512E-03  2.1716E-03  -97.847
    47    1   2.3266   0.0000   0.2502  0.05003  -7.1456E-04 -2.1900E-03  2.3036E-03 -108.071
