1



                                 *********************************************

                                    NUMERICAL ELECTROMAGNETICS CODE (NEC-2D)

                                 *********************************************




                                     - - - - COMMENTS - - - -


                          Wire Antenna Perfect Ground                                                
                                                                                                     




                                 - - - STRUCTURE SPECIFICATION - - -

                                     COORDINATES MUST BE INPUT IN
                                     METERS OR BE SCALED TO METERS
                                     BEFORE STRUCTURE INPUT IS ENDED


  WIRE                                                                               NO. OF    FIRST  LAST     TAG
  NO.        X1         Y1         Z1          X2         Y2         Z2      RADIUS   SEG.     SEG.   SEG.     NO.
     1    0.00000    0.00000   25.00000   500.00000    0.00000   25.00000    0.02000    100        1   100       1
     2    0.00000    0.00000    0.00000     0.00000    0.00000   25.00000    0.02000      3      101   103       2
     3  500.00000    0.00000   25.00000   500.00000    0.00000    0.00000    0.02000      3      104   106       3

   TOTAL SEGMENTS USED=  106     NO. SEG. IN A SYMMETRIC CELL=  106     SYMMETRY FLAG=  0


         - MULTIPLE WIRE JUNCTIONS -
 JUNCTION    SEGMENTS  (- FOR END 1, + FOR END 2)
  NONE




                                 - - - - SEGMENTATION DATA - - - -

                                        COORDINATES IN METERS

                         I+ AND I- INDICATE THE SEGMENTS BEFORE AND AFTER I


  SEG.   COORDINATES OF SEG. CENTER     SEG.     ORIENTATION ANGLES    WIRE    CONNECTION DATA   TAG
  NO.       X         Y         Z       LENGTH     ALPHA     BETA      RADIUS    I-   I    I+    NO.
     1   2.50000   0.00000  25.00000   5.00000    0.00000   0.00000   0.02000   103    1    2      1
     2   7.50000   0.00000  25.00000   5.00000    0.00000   0.00000   0.02000     1    2    3      1
     3  12.50000   0.00000  25.00000   5.00000    0.00000   0.00000   0.02000     2    3    4      1
     4  17.50000   0.00000  25.00000   5.00000    0.00000   0.00000   0.02000     3    4    5      1
     5  22.50000   0.00000  25.00000   5.00000    0.00000   0.00000   0.02000     4    5    6      1
     6  27.50000   0.00000  25.00000   5.00000    0.00000   0.00000   0.02000     5    6    7      1
     7  32.50000   0.00000  25.00000   5.00000    0.00000   0.00000   0.02000     6    7    8      1
     8  37.50000   0.00000  25.00000   5.00000    0.00000   0.00000   0.02000     7    8    9      1
     9  42.50000   0.00000  25.00000   5.00000    0.00000   0.00000   0.02000     8    9   10      1
    10  47.50000   0.00000  25.00000   5.00000    0.00000   0.00000   0.02000     9   10   11      1
    11  52.50000   0.00000  25.00000   5.00000    0.00000   0.00000   0.02000    10   11   12      1
    12  57.50000   0.00000  25.00000   5.00000    0.00000   0.00000   0.02000    11   12   13      1
    13  62.50000   0.00000  25.00000   5.00000    0.00000   0.00000   0.02000    12   13   14      1
    14  67.50000   0.00000  25.00000   5.00000    0.00000   0.00000   0.02000    13   14   15      1
    15  72.50000   0.00000  25.00000   5.00000    0.00000   0.00000   0.02000    14   15   16      1
    16  77.50000   0.00000  25.00000   5.00000    0.00000   0.00000   0.02000    15   16   17      1
    17  82.50000   0.00000  25.00000   5.00000    0.00000   0.00000   0.02000    16   17   18      1
    18  87.50000   0.00000  25.00000   5.00000    0.00000   0.00000   0.02000    17   18   19      1
    19  92.50000   0.00000  25.00000   5.00000    0.00000   0.00000   0.02000    18   19   20      1
    20  97.50000   0.00000  25.00000   5.00000    0.00000   0.00000   0.02000    19   20   21      1
    21 102.50000   0.00000  25.00000   5.00000    0.00000   0.00000   0.02000    20   21   22      1
    22 107.50000   0.00000  25.00000   5.00000    0.00000   0.00000   0.02000    21   22   23      1
    23 112.50000   0.00000  25.00000   5.00000    0.00000   0.00000   0.02000    22   23   24      1
    24 117.50000   0.00000  25.00000   5.00000    0.00000   0.00000   0.02000    23   24   25      1
    25 122.50000   0.00000  25.00000   5.00000    0.00000   0.00000   0.02000    24   25   26      1
    26 127.50000   0.00000  25.00000   5.00000    0.00000   0.00000   0.02000    25   26   27      1
    27 132.50000   0.00000  25.00000   5.00000    0.00000   0.00000   0.02000    26   27   28      1
    28 137.50000   0.00000  25.00000   5.00000    0.00000   0.00000   0.02000    27   28   29      1
    29 142.50000   0.00000  25.00000   5.00000    0.00000   0.00000   0.02000    28   29   30      1
    30 147.50000   0.00000  25.00000   5.00000    0.00000   0.00000   0.02000    29   30   31      1
    31 152.50000   0.00000  25.00000   5.00000    0.00000   0.00000   0.02000    30   31   32      1
    32 157.50000   0.00000  25.00000   5.00000    0.00000   0.00000   0.02000    31   32   33      1
    33 162.50000   0.00000  25.00000   5.00000    0.00000   0.00000   0.02000    32   33   34      1
    34 167.50000   0.00000  25.00000   5.00000    0.00000   0.00000   0.02000    33   34   35      1
    35 172.50000   0.00000  25.00000   5.00000    0.00000   0.00000   0.02000    34   35   36      1
    36 177.50000   0.00000  25.00000   5.00000    0.00000   0.00000   0.02000    35   36   37      1
    37 182.50000   0.00000  25.00000   5.00000    0.00000   0.00000   0.02000    36   37   38      1
    38 187.50000   0.00000  25.00000   5.00000    0.00000   0.00000   0.02000    37   38   39      1
    39 192.50000   0.00000  25.00000   5.00000    0.00000   0.00000   0.02000    38   39   40      1
    40 197.50000   0.00000  25.00000   5.00000    0.00000   0.00000   0.02000    39   40   41      1
    41 202.50000   0.00000  25.00000   5.00000    0.00000   0.00000   0.02000    40   41   42      1
    42 207.50000   0.00000  25.00000   5.00000    0.00000   0.00000   0.02000    41   42   43      1
    43 212.50000   0.00000  25.00000   5.00000    0.00000   0.00000   0.02000    42   43   44      1
    44 217.50000   0.00000  25.00000   5.00000    0.00000   0.00000   0.02000    43   44   45      1
    45 222.50000   0.00000  25.00000   5.00000    0.00000   0.00000   0.02000    44   45   46      1
    46 227.50000   0.00000  25.00000   5.00000    0.00000   0.00000   0.02000    45   46   47      1
    47 232.50000   0.00000  25.00000   5.00000    0.00000   0.00000   0.02000    46   47   48      1
    48 237.50000   0.00000  25.00000   5.00000    0.00000   0.00000   0.02000    47   48   49      1
    49 242.50000   0.00000  25.00000   5.00000    0.00000   0.00000   0.02000    48   49   50      1
    50 247.50000   0.00000  25.00000   5.00000    0.00000   0.00000   0.02000    49   50   51      1
    51 252.50000   0.00000  25.00000   5.00000    0.00000   0.00000   0.02000    50   51   52      1
    52 257.50000   0.00000  25.00000   5.00000    0.00000   0.00000   0.02000    51   52   53      1
    53 262.50000   0.00000  25.00000   5.00000    0.00000   0.00000   0.02000    52   53   54      1
    54 267.50000   0.00000  25.00000   5.00000    0.00000   0.00000   0.02000    53   54   55      1
    55 272.50000   0.00000  25.00000   5.00000    0.00000   0.00000   0.02000    54   55   56      1
    56 277.50000   0.00000  25.00000   5.00000    0.00000   0.00000   0.02000    55   56   57      1
    57 282.50000   0.00000  25.00000   5.00000    0.00000   0.00000   0.02000    56   57   58      1
    58 287.50000   0.00000  25.00000   5.00000    0.00000   0.00000   0.02000    57   58   59      1
    59 292.50000   0.00000  25.00000   5.00000    0.00000   0.00000   0.02000    58   59   60      1
    60 297.50000   0.00000  25.00000   5.00000    0.00000   0.00000   0.02000    59   60   61      1
    61 302.50000   0.00000  25.00000   5.00000    0.00000   0.00000   0.02000    60   61   62      1
    62 307.50000   0.00000  25.00000   5.00000    0.00000   0.00000   0.02000    61   62   63      1
    63 312.50000   0.00000  25.00000   5.00000    0.00000   0.00000   0.02000    62   63   64      1
    64 317.50000   0.00000  25.00000   5.00000    0.00000   0.00000   0.02000    63   64   65      1
    65 322.50000   0.00000  25.00000   5.00000    0.00000   0.00000   0.02000    64   65   66      1
    66 327.50000   0.00000  25.00000   5.00000    0.00000   0.00000   0.02000    65   66   67      1
    67 332.50000   0.00000  25.00000   5.00000    0.00000   0.00000   0.02000    66   67   68      1
    68 337.50000   0.00000  25.00000   5.00000    0.00000   0.00000   0.02000    67   68   69      1
    69 342.50000   0.00000  25.00000   5.00000    0.00000   0.00000   0.02000    68   69   70      1
    70 347.50000   0.00000  25.00000   5.00000    0.00000   0.00000   0.02000    69   70   71      1
    71 352.50000   0.00000  25.00000   5.00000    0.00000   0.00000   0.02000    70   71   72      1
    72 357.50000   0.00000  25.00000   5.00000    0.00000   0.00000   0.02000    71   72   73      1
    73 362.50000   0.00000  25.00000   5.00000    0.00000   0.00000   0.02000    72   73   74      1
    74 367.50000   0.00000  25.00000   5.00000    0.00000   0.00000   0.02000    73   74   75      1
    75 372.50000   0.00000  25.00000   5.00000    0.00000   0.00000   0.02000    74   75   76      1
    76 377.50000   0.00000  25.00000   5.00000    0.00000   0.00000   0.02000    75   76   77      1
    77 382.50000   0.00000  25.00000   5.00000    0.00000   0.00000   0.02000    76   77   78      1
    78 387.50000   0.00000  25.00000   5.00000    0.00000   0.00000   0.02000    77   78   79      1
    79 392.50000   0.00000  25.00000   5.00000    0.00000   0.00000   0.02000    78   79   80      1
    80 397.50000   0.00000  25.00000   5.00000    0.00000   0.00000   0.02000    79   80   81      1
    81 402.50000   0.00000  25.00000   5.00000    0.00000   0.00000   0.02000    80   81   82      1
    82 407.50000   0.00000  25.00000   5.00000    0.00000   0.00000   0.02000    81   82   83      1
    83 412.50000   0.00000  25.00000   5.00000    0.00000   0.00000   0.02000    82   83   84      1
    84 417.50000   0.00000  25.00000   5.00000    0.00000   0.00000   0.02000    83   84   85      1
    85 422.50000   0.00000  25.00000   5.00000    0.00000   0.00000   0.02000    84   85   86      1
    86 427.50000   0.00000  25.00000   5.00000    0.00000   0.00000   0.02000    85   86   87      1
    87 432.50000   0.00000  25.00000   5.00000    0.00000   0.00000   0.02000    86   87   88      1
    88 437.50000   0.00000  25.00000   5.00000    0.00000   0.00000   0.02000    87   88   89      1
    89 442.50000   0.00000  25.00000   5.00000    0.00000   0.00000   0.02000    88   89   90      1
    90 447.50000   0.00000  25.00000   5.00000    0.00000   0.00000   0.02000    89   90   91      1
    91 452.50000   0.00000  25.00000   5.00000    0.00000   0.00000   0.02000    90   91   92      1
    92 457.50000   0.00000  25.00000   5.00000    0.00000   0.00000   0.02000    91   92   93      1
    93 462.50000   0.00000  25.00000   5.00000    0.00000   0.00000   0.02000    92   93   94      1
    94 467.50000   0.00000  25.00000   5.00000    0.00000   0.00000   0.02000    93   94   95      1
    95 472.50000   0.00000  25.00000   5.00000    0.00000   0.00000   0.02000    94   95   96      1
    96 477.50000   0.00000  25.00000   5.00000    0.00000   0.00000   0.02000    95   96   97      1
    97 482.50000   0.00000  25.00000   5.00000    0.00000   0.00000   0.02000    96   97   98      1
    98 487.50000   0.00000  25.00000   5.00000    0.00000   0.00000   0.02000    97   98   99      1
    99 492.50000   0.00000  25.00000   5.00000    0.00000   0.00000   0.02000    98   99  100      1
   100 497.50000   0.00000  25.00000   5.00000    0.00000   0.00000   0.02000    99  100  104      1
   101   0.00000   0.00000   4.16667   8.33333   90.00000   0.00000   0.02000     0  101  102      2
   102   0.00000   0.00000  12.50000   8.33333   90.00000   0.00000   0.02000   101  102  103      2
   103   0.00000   0.00000  20.83333   8.33333   90.00000   0.00000   0.02000   102  103    1      2
   104 500.00000   0.00000  20.83333   8.33333  -90.00000   0.00000   0.02000   100  104  105      3
   105 500.00000   0.00000  12.50000   8.33333  -90.00000   0.00000   0.02000   104  105  106      3
   106 500.00000   0.00000   4.16667   8.33333  -90.00000   0.00000   0.02000   105  106    0      3






 ***** DATA CARD NO.  1   LD   0     3     1     3  5.10460E+02  0.00000E+00  0.00000E+00  0.00000E+00  0.00000E+00  0.00000E+00
 ***** DATA CARD NO.  2   GN   1     0     0     0  0.00000E+00  0.00000E+00  0.00000E+00  0.00000E+00  0.00000E+00  0.00000E+00
 ***** DATA CARD NO.  3   EK   0     0     0     0  0.00000E+00  0.00000E+00  0.00000E+00  0.00000E+00  0.00000E+00  0.00000E+00
 ***** DATA CARD NO.  4   EX   0     1     1     0  1.00000E+00  0.00000E+00  0.00000E+00  0.00000E+00  0.00000E+00  0.00000E+00
 ***** DATA CARD NO.  5   FR   0     0     0     0  3.00000E+00  0.00000E+00  0.00000E+00  0.00000E+00  0.00000E+00  0.00000E+00
 ***** DATA CARD NO.  6   RP   0    91   361  1003 -9.00000E+01  0.00000E+00  1.00000E+00  1.00000E+00  0.00000E+00  0.00000E+00




                                 - - - - - - FREQUENCY - - - - - -

                                    FREQUENCY= 3.0000E+00 MHZ
                                    WAVELENGTH= 9.9933E+01 METERS




                    APPROXIMATE INTEGRATION EMPLOYED FOR SEGMENTS MORE THAN   1.000 WAVELENGTHS APART

                    THE EXTENDED THIN WIRE KERNEL WILL BE USED



                               - - - STRUCTURE IMPEDANCE LOADING - - -


       LOCATION          RESISTANCE   INDUCTANCE  CAPACITANCE       IMPEDANCE (OHMS)     CONDUCTIVITY    TYPE
    ITAG FROM THRU          OHMS        HENRYS       FARADS        REAL      IMAGINARY    MHOS/METER

       3    1    3      5.1046E+02                                                                     SERIES 



                                  - - - ANTENNA ENVIRONMENT - - -

                                          PERFECT GROUND



                                - - - MATRIX TIMING - - -

                        FILL=    0.000 SEC.,  FACTOR=    0.000 SEC.



                                          - - - ANTENNA INPUT PARAMETERS - - -

   TAG   SEG.    VOLTAGE (VOLTS)         CURRENT (AMPS)         IMPEDANCE (OHMS)        ADMITTANCE (MHOS)      POWER
   NO.   NO.    REAL        IMAG.       REAL        IMAG.       REAL        IMAG.       REAL        IMAG.     (WATTS)
     1     1 1.00000E+00 0.00000E+00 1.67235E-03 6.71518E-04 5.14935E+02-2.06767E+02 1.67235E-03 6.71518E-04 8.36176E-04



                             - - - CURRENTS AND LOCATION - - -

                                 DISTANCES IN WAVELENGTHS


  SEG.  TAG    COORD. OF SEG. CENTER     SEG.            - - - CURRENT (AMPS) - - -
  NO.   NO.     X        Y        Z      LENGTH     REAL        IMAG.       MAG.        PHASE
     1    1   0.0250   0.0000   0.2502  0.05003   1.6724E-03  6.7152E-04  1.8021E-03   21.877
     2    1   0.0751   0.0000   0.2502  0.05003   1.4874E-03 -5.5222E-05  1.4884E-03   -2.126
     3    1   0.1251   0.0000   0.2502  0.05003   1.1801E-03 -8.2026E-04  1.4372E-03  -34.802
     4    1   0.1751   0.0000   0.2502  0.05003   7.7727E-04 -1.4655E-03  1.6589E-03  -62.060
     5    1   0.2252   0.0000   0.2502  0.05003   3.1569E-04 -1.9478E-03  1.9733E-03  -80.794
     6    1   0.2752   0.0000   0.2502  0.05003  -1.6180E-04 -2.2283E-03  2.2342E-03  -94.153
     7    1   0.3252   0.0000   0.2502  0.05003  -6.1059E-04 -2.2846E-03  2.3648E-03 -104.964
     8    1   0.3753   0.0000   0.2502  0.05003  -9.8877E-04 -2.1145E-03  2.3343E-03 -115.061
     9    1   0.4253   0.0000   0.2502  0.05003  -1.2612E-03 -1.7372E-03  2.1468E-03 -125.980
    10    1   0.4753   0.0000   0.2502  0.05003  -1.4031E-03 -1.1913E-03  1.8406E-03 -139.668
    11    1   0.5254   0.0000   0.2502  0.05003  -1.4023E-03 -5.3126E-04  1.4996E-03 -159.251
    12    1   0.5754   0.0000   0.2502  0.05003  -1.2604E-03  1.7754E-04  1.2728E-03  171.982
    13    1   0.6254   0.0000   0.2502  0.05003  -9.9276E-04  8.6543E-04  1.3170E-03  138.920
    14    1   0.6755   0.0000   0.2502  0.05003  -6.2683E-04  1.4651E-03  1.5935E-03  113.164
    15    1   0.7255   0.0000   0.2502  0.05003  -1.9946E-04  1.9180E-03  1.9284E-03   95.937
    16    1   0.7755   0.0000   0.2502  0.05003   2.4670E-04  2.1803E-03  2.1942E-03   83.544
    17    1   0.8256   0.0000   0.2502  0.05003   6.6740E-04  2.2268E-03  2.3247E-03   73.316
    18    1   0.8756   0.0000   0.2502  0.05003   1.0211E-03  2.0536E-03  2.2934E-03   63.563
    19    1   0.9256   0.0000   0.2502  0.05003   1.2730E-03  1.6782E-03  2.1064E-03   52.819
    20    1   0.9757   0.0000   0.2502  0.05003   1.3984E-03  1.1381E-03  1.8030E-03   39.140
    21    1   1.0257   0.0000   0.2502  0.05003   1.3854E-03  4.8656E-04  1.4683E-03   19.352
    22    1   1.0757   0.0000   0.2502  0.05003   1.2353E-03 -2.1207E-04  1.2534E-03   -9.741
    23    1   1.1258   0.0000   0.2502  0.05003   9.6335E-04 -8.8905E-04  1.3109E-03  -42.703
    24    1   1.1758   0.0000   0.2502  0.05003   5.9649E-04 -1.4779E-03  1.5937E-03  -68.020
    25    1   1.2258   0.0000   0.2502  0.05003   1.7103E-04 -1.9208E-03  1.9284E-03  -84.912
    26    1   1.2759   0.0000   0.2502  0.05003  -2.7100E-04 -2.1744E-03  2.1912E-03  -97.104
    27    1   1.3259   0.0000   0.2502  0.05003  -6.8605E-04 -2.2139E-03  2.3178E-03 -107.217
    28    1   1.3759   0.0000   0.2502  0.05003  -1.0333E-03 -2.0358E-03  2.2830E-03 -116.910
    29    1   1.4260   0.0000   0.2502  0.05003  -1.2785E-03 -1.6575E-03  2.0933E-03 -127.643
    30    1   1.4760   0.0000   0.2502  0.05003  -1.3977E-03 -1.1166E-03  1.7890E-03 -141.379
    31    1   1.5260   0.0000   0.2502  0.05003  -1.3793E-03 -4.6619E-04  1.4559E-03 -161.325
    32    1   1.5761   0.0000   0.2502  0.05003  -1.2251E-03  2.2974E-04  1.2465E-03  169.379
    33    1   1.6261   0.0000   0.2502  0.05003  -9.5048E-04  9.0279E-04  1.3109E-03  136.474
    34    1   1.6761   0.0000   0.2502  0.05003  -5.8247E-04  1.4869E-03  1.5969E-03  111.392
    35    1   1.7262   0.0000   0.2502  0.05003  -1.5732E-04  1.9246E-03  1.9311E-03   94.673
    36    1   1.7762   0.0000   0.2502  0.05003   2.8313E-04  2.1732E-03  2.1915E-03   82.577
    37    1   1.8262   0.0000   0.2502  0.05003   6.9559E-04  2.2082E-03  2.3151E-03   72.515
    38    1   1.8763   0.0000   0.2502  0.05003   1.0395E-03  2.0262E-03  2.2773E-03   62.840
    39    1   1.9263   0.0000   0.2502  0.05003   1.2812E-03  1.6453E-03  2.0853E-03   52.092
    40    1   1.9763   0.0000   0.2502  0.05003   1.3969E-03  1.1029E-03  1.7798E-03   38.291
    41    1   2.0264   0.0000   0.2502  0.05003   1.3754E-03  4.5225E-04  1.4478E-03   18.202
    42    1   2.0764   0.0000   0.2502  0.05003   1.2187E-03 -2.4265E-04  1.2426E-03  -11.260
    43    1   2.1264   0.0000   0.2502  0.05003   9.4245E-04 -9.1360E-04  1.3126E-03  -44.109
    44    1   2.1765   0.0000   0.2502  0.05003   5.7374E-04 -1.4947E-03  1.6010E-03  -69.001
    45    1   2.2265   0.0000   0.2502  0.05003   1.4882E-04 -1.9290E-03  1.9347E-03  -85.588
    46    1   2.2765   0.0000   0.2502  0.05003  -2.9056E-04 -2.1737E-03  2.1931E-03  -97.614
    47    1   2.3266   0.0000   0.2502  0.05003  -7.0127E-04 -2.2050E-03  2.3138E-03 -107.642
    48    1   2.3766   0.0000   0.2502  0.05003  -1.0430E-03 -2.0198E-03  2.2732E-03 -117.311
    49    1   2.4266   0.0000   0.2502  0.05003  -1.2822E-03 -1.6362E-03  2.0788E-03 -128.084
    50    1   2.4767   0.0000   0.2502  0.05003  -1.3956E-03 -1.0921E-03  1.7721E-03 -141.956
